Sample in Buffer,Sample in Window,TRIGGER,design_receiver_i/receiver_sync_in_1,design_receiver_i/receiver_ad_1[7:0],design_receiver_i/ReceiverWrapper_0_receiver_sync_out,design_receiver_i/ReceiverWrapper_0_receiver_da[7:0],design_receiver_i/ReceiverWrapper_0_receiver_ad_clk,design_receiver_i/ReceiverWrapper_0_receiver_da_clk
Radix - UNSIGNED,UNSIGNED,UNSIGNED,HEX,UNSIGNED,HEX,BINARY,HEX,HEX
3215,3215,0,1,125,1,01111111,0,1
3216,3216,0,1,126,1,01111111,0,1
3217,3217,0,1,126,1,01111111,0,1
3218,3218,0,1,126,0,01111111,0,0
3219,3219,0,1,125,0,01111111,0,0
3220,3220,0,1,126,0,01111111,0,0
3221,3221,0,1,125,0,01111111,0,0
3222,3222,0,1,126,0,01111111,0,0
3223,3223,0,1,126,0,01111111,0,0
3224,3224,0,1,126,0,01111111,0,0
3225,3225,0,1,126,0,01111111,0,0
3226,3226,0,1,125,0,01111111,0,0
3227,3227,0,1,126,0,01111111,0,0
3228,3228,0,1,126,0,01111111,0,0
3229,3229,0,1,126,0,01111111,0,0
3230,3230,0,1,126,0,01111111,0,0
3231,3231,0,1,126,0,01111111,0,0
3232,3232,0,1,125,0,01111111,0,0
3233,3233,0,1,125,0,01111111,0,0
3234,3234,0,1,126,0,01111111,0,0
3235,3235,0,1,126,0,01111111,0,0
3236,3236,0,1,126,0,01111111,0,0
3237,3237,0,1,125,0,01111111,0,0
3238,3238,0,1,125,0,01111111,0,0
3239,3239,0,1,125,0,01111111,0,0
3240,3240,0,1,126,0,01111111,0,0
3241,3241,0,1,126,1,01111111,0,1
3242,3242,0,1,126,1,01111111,0,1
3243,3243,0,1,126,1,01111111,0,1
3244,3244,0,1,126,1,01111111,0,1
3245,3245,0,1,126,1,01111111,0,1
3246,3246,0,1,126,1,01111111,0,1
3247,3247,0,1,126,1,01111111,0,1
3248,3248,0,1,126,1,01111111,0,1
3249,3249,0,1,126,1,01111111,0,1
3250,3250,0,1,126,1,01111111,0,1
3251,3251,0,1,125,1,01111111,0,1
3252,3252,0,1,126,1,01111111,0,1
3253,3253,0,1,126,1,01111111,0,1
3254,3254,0,1,126,1,01111111,0,1
3255,3255,0,1,126,1,01111111,0,1
3256,3256,0,1,126,1,01111111,0,1
3257,3257,0,1,126,1,01111111,0,1
3258,3258,0,1,125,1,01111111,0,1
3259,3259,0,1,126,1,01111111,0,1
3260,3260,0,1,126,1,01111111,0,1
3261,3261,0,1,126,1,01111111,0,1
3262,3262,0,1,125,1,01111111,0,1
3263,3263,0,1,126,0,01111111,0,0
3264,3264,0,1,125,0,01111111,0,0
3265,3265,0,1,126,0,01111111,0,0
3266,3266,0,1,126,0,01111111,0,0
3267,3267,0,1,126,0,01111111,0,0
3268,3268,0,1,126,0,01111111,0,0
3269,3269,0,1,126,0,01111111,0,0
3270,3270,0,1,125,0,01111111,0,0
3271,3271,0,1,126,0,01111111,0,0
3272,3272,0,1,126,0,01111111,0,0
3273,3273,0,1,125,0,01111111,0,0
3274,3274,0,1,126,0,01111111,0,0
3275,3275,0,1,125,0,01111111,0,0
3276,3276,0,1,126,0,01111111,0,0
3277,3277,0,1,126,0,01111111,0,0
3278,3278,0,1,125,0,01111111,0,0
3279,3279,0,1,126,0,01111111,0,0
3280,3280,0,1,126,0,01111111,0,0
3281,3281,0,1,126,0,01111111,0,0
3282,3282,0,1,126,0,01111111,0,0
3283,3283,0,1,126,0,01111111,0,0
3284,3284,0,1,126,0,01111111,0,0
3285,3285,0,1,126,0,01111111,0,0
3286,3286,0,1,125,1,01111111,0,1
3287,3287,0,1,126,1,01111111,0,1
3288,3288,0,1,126,1,01111111,0,1
3289,3289,0,1,126,1,01111111,0,1
3290,3290,0,1,125,1,01111111,0,1
3291,3291,0,1,126,1,01111111,0,1
3292,3292,0,1,126,1,01111111,0,1
3293,3293,0,1,126,1,01111111,0,1
3294,3294,0,1,126,1,01111111,0,1
3295,3295,0,1,126,1,01111111,0,1
3296,3296,0,1,126,1,01111111,0,1
3297,3297,0,1,126,1,01111111,0,1
3298,3298,0,1,125,1,01111111,0,1
3299,3299,0,1,125,1,01111111,0,1
3300,3300,0,1,126,1,01111111,0,1
3301,3301,0,1,126,1,01111111,0,1
3302,3302,0,1,126,1,01111111,0,1
3303,3303,0,1,126,1,01111111,0,1
3304,3304,0,1,126,1,01111111,0,1
3305,3305,0,1,126,1,01111111,0,1
3306,3306,0,1,125,1,01111111,0,1
3307,3307,0,1,125,1,01111111,0,1
3308,3308,0,1,125,0,01111111,0,0
3309,3309,0,1,126,0,01111111,0,0
3310,3310,0,1,126,0,01111111,0,0
3311,3311,0,1,126,0,01111111,0,0
3312,3312,0,1,126,0,01111111,0,0
3313,3313,0,1,126,0,01111111,0,0
3314,3314,0,1,126,0,01111111,0,0
3315,3315,0,1,126,0,01111111,0,0
3316,3316,0,1,125,0,01111111,0,0
3317,3317,0,1,126,0,01111111,0,0
3318,3318,0,1,126,0,01111111,0,0
3319,3319,0,1,126,0,01111111,0,0
3320,3320,0,1,126,0,01111111,0,0
3321,3321,0,1,126,0,01111111,0,0
3322,3322,0,1,125,0,01111111,0,0
3323,3323,0,1,126,0,01111111,0,0
3324,3324,0,1,126,0,01111111,0,0
3325,3325,0,1,125,0,01111111,0,0
3326,3326,0,1,126,0,01111111,0,0
3327,3327,0,1,125,0,01111111,0,0
3328,3328,0,1,126,0,01111111,0,0
3329,3329,0,1,125,0,01111111,0,0
3330,3330,0,1,125,0,01111111,0,0
3331,3331,0,1,126,1,01111111,0,1
3332,3332,0,1,126,1,01111111,0,1
3333,3333,0,1,125,1,01111111,0,1
3334,3334,0,1,126,1,01111111,0,1
3335,3335,0,1,126,1,01111111,0,1
3336,3336,0,1,126,1,01111111,0,1
3337,3337,0,1,125,1,01111111,0,1
3338,3338,0,1,126,1,01111111,0,1
3339,3339,0,1,126,1,01111111,0,1
3340,3340,0,1,126,1,01111111,0,1
3341,3341,0,1,126,1,01111111,0,1
3342,3342,0,1,125,1,01111111,0,1
3343,3343,0,1,126,1,01111111,0,1
3344,3344,0,1,126,1,01111111,0,1
3345,3345,0,1,126,1,01111111,0,1
3346,3346,0,1,126,1,01111111,0,1
3347,3347,0,1,125,1,01111111,0,1
3348,3348,0,1,125,1,01111111,0,1
3349,3349,0,1,126,1,01111111,0,1
3350,3350,0,1,126,1,01111111,0,1
3351,3351,0,1,126,1,01111111,0,1
3352,3352,0,1,125,1,01111111,0,1
3353,3353,0,1,126,0,01111111,0,0
3354,3354,0,1,126,0,01111111,0,0
3355,3355,0,1,125,0,01111111,0,0
3356,3356,0,1,125,0,01111111,0,0
3357,3357,0,1,126,0,01111111,0,0
3358,3358,0,1,125,0,01111111,0,0
3359,3359,0,1,126,0,01111111,0,0
3360,3360,0,1,125,0,01111111,0,0
3361,3361,0,1,126,0,01111111,0,0
3362,3362,0,1,126,0,01111111,0,0
3363,3363,0,1,126,0,01111111,0,0
3364,3364,0,1,125,0,01111111,0,0
3365,3365,0,1,125,0,01111111,0,0
3366,3366,0,1,125,0,01111111,0,0
3367,3367,0,1,126,0,01111111,0,0
3368,3368,0,1,126,0,01111111,0,0
3369,3369,0,1,125,0,01111111,0,0
3370,3370,0,1,126,0,01111111,0,0
3371,3371,0,1,125,0,01111111,0,0
3372,3372,0,1,126,0,01111111,0,0
3373,3373,0,1,126,0,01111111,0,0
3374,3374,0,1,125,0,01111111,0,0
3375,3375,0,1,126,0,01111111,0,0
3376,3376,0,1,125,1,01111111,0,1
3377,3377,0,1,126,1,01111111,0,1
3378,3378,0,1,126,1,01111111,0,1
3379,3379,0,1,125,1,01111111,0,1
3380,3380,0,1,126,1,01111111,0,1
3381,3381,0,1,125,1,01111111,0,1
3382,3382,0,1,125,1,01111111,0,1
3383,3383,0,1,126,1,01111111,0,1
3384,3384,0,1,126,1,01111111,0,1
3385,3385,0,1,126,1,01111111,0,1
3386,3386,0,1,126,1,01111111,0,1
3387,3387,0,1,125,1,01111111,0,1
3388,3388,0,1,126,1,01111111,0,1
3389,3389,0,1,126,1,01111111,0,1
3390,3390,0,1,125,1,01111111,0,1
3391,3391,0,1,126,1,01111111,0,1
3392,3392,0,1,126,1,01111111,0,1
3393,3393,0,1,126,1,01111111,0,1
3394,3394,0,1,126,1,01111111,0,1
3395,3395,0,1,126,1,01111111,0,1
3396,3396,0,1,125,1,01111111,0,1
3397,3397,0,1,126,1,01111111,0,1
3398,3398,0,1,126,0,01111111,0,0
3399,3399,0,1,126,0,01111111,0,0
3400,3400,0,1,126,0,01111111,0,0
3401,3401,0,1,125,0,01111111,0,0
3402,3402,0,1,125,0,01111111,0,0
3403,3403,0,1,126,0,01111111,0,0
3404,3404,0,1,126,0,01111111,0,0
3405,3405,0,1,126,0,01111111,0,0
3406,3406,0,1,126,0,01111111,0,0
3407,3407,0,1,125,0,01111111,0,0
3408,3408,0,1,125,0,01111111,0,0
3409,3409,0,1,126,0,01111111,0,0
3410,3410,0,1,126,0,01111111,0,0
3411,3411,0,1,126,0,01111111,0,0
3412,3412,0,1,126,0,01111111,0,0
3413,3413,0,1,126,0,01111111,0,0
3414,3414,0,1,126,0,01111111,0,0
3415,3415,0,1,125,0,01111111,0,0
3416,3416,0,1,125,0,01111111,0,0
3417,3417,0,1,126,0,01111111,0,0
3418,3418,0,1,126,0,01111111,0,0
3419,3419,0,1,126,0,01111111,0,0
3420,3420,0,1,126,0,01111111,0,0
3421,3421,0,1,126,1,01111111,0,1
3422,3422,0,1,126,1,01111111,0,1
3423,3423,0,1,125,1,01111111,0,1
3424,3424,0,1,125,1,01111111,0,1
3425,3425,0,1,126,1,01111111,0,1
3426,3426,0,1,125,1,01111111,0,1
3427,3427,0,1,126,1,01111111,0,1
3428,3428,0,1,126,1,01111111,0,1
3429,3429,0,1,126,1,01111111,0,1
3430,3430,0,1,126,1,01111111,0,1
3431,3431,0,1,126,1,01111111,0,1
3432,3432,0,1,126,1,01111111,0,1
3433,3433,0,1,126,1,01111111,0,1
3434,3434,0,1,125,1,01111111,0,1
3435,3435,0,1,126,1,01111111,0,1
3436,3436,0,1,126,1,01111111,0,1
3437,3437,0,1,126,1,01111111,0,1
3438,3438,0,1,126,1,01111111,0,1
3439,3439,0,1,126,1,01111111,0,1
3440,3440,0,1,125,1,01111111,0,1
3441,3441,0,1,125,1,01111111,0,1
3442,3442,0,1,126,1,01111111,0,1
3443,3443,0,1,125,0,01111111,0,0
3444,3444,0,1,125,0,01111111,0,0
3445,3445,0,1,126,0,01111111,0,0
3446,3446,0,1,126,0,01111111,0,0
3447,3447,0,1,126,0,01111111,0,0
3448,3448,0,1,126,0,01111111,0,0
3449,3449,0,1,126,0,01111111,0,0
3450,3450,0,1,126,0,01111111,0,0
3451,3451,0,1,125,0,01111111,0,0
3452,3452,0,1,117,0,01111111,0,0
3453,3453,0,1,125,0,01111111,0,0
3454,3454,0,1,135,0,01111111,0,0
3455,3455,0,1,117,0,01111111,0,0
3456,3456,0,1,126,0,01111111,0,0
3457,3457,0,1,134,0,01111111,0,0
3458,3458,0,1,117,0,01111111,0,0
3459,3459,0,1,126,0,01111111,0,0
3460,3460,0,1,134,0,01111111,0,0
3461,3461,0,1,117,0,01111111,0,0
3462,3462,0,1,126,0,01111111,0,0
3463,3463,0,1,134,0,01111111,0,0
3464,3464,0,1,117,0,01111111,0,0
3465,3465,0,1,126,0,01111111,0,0
3466,3466,0,1,134,1,01111111,0,1
3467,3467,0,1,117,1,01111111,0,1
3468,3468,0,1,126,1,01111111,0,1
3469,3469,0,1,134,1,01111111,0,1
3470,3470,0,1,117,1,01111111,0,1
3471,3471,0,1,126,1,01111111,0,1
3472,3472,0,1,134,1,01111111,0,1
3473,3473,0,1,117,1,01111111,0,1
3474,3474,0,1,126,1,01111111,0,1
3475,3475,0,1,134,1,01111111,0,1
3476,3476,0,1,117,1,01111111,0,1
3477,3477,0,1,126,1,01111111,0,1
3478,3478,0,1,134,1,01111111,0,1
3479,3479,0,1,117,1,01111111,0,1
3480,3480,0,1,126,1,01111111,0,1
3481,3481,0,1,134,1,01111111,0,1
3482,3482,0,1,117,1,01111111,0,1
3483,3483,0,1,126,1,01111111,0,1
3484,3484,0,1,134,1,01111111,0,1
3485,3485,0,1,117,1,01111111,0,1
3486,3486,0,1,126,1,01111111,0,1
3487,3487,0,1,134,1,01111111,0,1
3488,3488,0,1,117,0,01111111,0,0
3489,3489,0,1,126,0,01111111,0,0
3490,3490,0,1,134,0,01111111,0,0
3491,3491,0,1,117,0,01111111,0,0
3492,3492,0,1,126,0,01111111,0,0
3493,3493,0,1,134,0,01111111,0,0
3494,3494,0,1,117,0,01111111,0,0
3495,3495,0,1,126,0,01111111,0,0
3496,3496,0,1,134,0,01111111,0,0
3497,3497,0,1,125,0,01111111,0,0
3498,3498,0,1,127,0,01111111,0,0
3499,3499,0,1,125,0,01111111,0,0
3500,3500,0,1,126,0,01111111,0,0
3501,3501,0,1,126,0,01111111,0,0
3502,3502,0,1,126,0,01111111,0,0
3503,3503,0,1,126,0,01111111,0,0
3504,3504,0,1,126,0,01111111,0,0
3505,3505,0,1,126,0,01111111,0,0
3506,3506,0,1,125,0,01111111,0,0
3507,3507,0,1,126,0,01111111,0,0
3508,3508,0,1,126,0,01111111,0,0
3509,3509,0,1,125,0,01111111,0,0
3510,3510,0,1,126,0,01111111,0,0
3511,3511,0,1,126,1,01111111,0,1
3512,3512,0,1,126,1,01111111,0,1
3513,3513,0,1,126,1,01111111,0,1
3514,3514,0,1,126,1,01111111,0,1
3515,3515,0,1,126,1,01111111,0,1
3516,3516,0,1,126,1,01111111,0,1
3517,3517,0,1,126,1,01111111,0,1
3518,3518,0,1,126,1,01111111,0,1
3519,3519,0,1,126,1,01111111,0,1
3520,3520,0,1,126,1,01111111,0,1
3521,3521,0,1,125,1,01111111,0,1
3522,3522,0,1,125,1,01111111,0,1
3523,3523,0,1,126,1,01111111,0,1
3524,3524,0,1,126,1,01111111,0,1
3525,3525,0,1,125,1,01111111,0,1
3526,3526,0,1,126,1,01111111,0,1
3527,3527,0,1,126,1,01111111,0,1
3528,3528,0,1,125,1,01111111,0,1
3529,3529,0,1,126,1,01111111,0,1
3530,3530,0,1,126,1,01111111,0,1
3531,3531,0,1,126,1,01111111,0,1
3532,3532,0,1,125,1,01111111,0,1
3533,3533,0,1,126,0,01111111,0,0
3534,3534,0,1,126,0,01111111,0,0
3535,3535,0,1,126,0,01111111,0,0
3536,3536,0,1,125,0,01111111,0,0
3537,3537,0,1,126,0,01111111,0,0
3538,3538,0,1,126,0,01111111,0,0
3539,3539,0,1,126,0,01111111,0,0
3540,3540,0,1,126,0,01111111,0,0
3541,3541,0,1,126,0,01111111,0,0
3542,3542,0,1,126,0,01111111,0,0
3543,3543,0,1,126,0,01111111,0,0
3544,3544,0,1,126,0,01111111,0,0
3545,3545,0,1,126,0,01111111,0,0
3546,3546,0,1,126,0,01111111,0,0
3547,3547,0,1,126,0,01111111,0,0
3548,3548,0,1,126,0,01111111,0,0
3549,3549,0,1,126,0,01111111,0,0
3550,3550,0,1,126,0,01111111,0,0
3551,3551,0,1,126,0,01111111,0,0
3552,3552,0,1,126,0,01111111,0,0
3553,3553,0,1,125,0,01111111,0,0
3554,3554,0,1,125,0,01111111,0,0
3555,3555,0,1,126,0,01111111,0,0
3556,3556,0,1,126,1,01111111,0,1
3557,3557,0,1,126,1,01111111,0,1
3558,3558,0,1,125,1,01111111,0,1
3559,3559,0,1,126,1,01111111,0,1
3560,3560,0,1,126,1,01111111,0,1
3561,3561,0,1,126,1,01111111,0,1
3562,3562,0,1,126,1,01111111,0,1
3563,3563,0,1,126,1,01111111,0,1
3564,3564,0,1,126,1,01111111,0,1
3565,3565,0,1,126,1,01111111,0,1
3566,3566,0,1,126,1,01111111,0,1
3567,3567,0,1,126,1,01111111,0,1
3568,3568,0,1,126,1,01111111,0,1
3569,3569,0,1,126,1,01111111,0,1
3570,3570,0,1,126,1,01111111,0,1
3571,3571,0,1,126,1,01111111,0,1
3572,3572,0,1,126,1,01111111,0,1
3573,3573,0,1,126,1,01111111,0,1
3574,3574,0,1,126,1,01111111,0,1
3575,3575,0,1,125,1,01111111,0,1
3576,3576,0,1,126,1,01111111,0,1
3577,3577,0,1,126,1,01111111,0,1
3578,3578,0,1,126,0,01111111,0,0
3579,3579,0,1,126,0,01111111,0,0
3580,3580,0,1,126,0,01111111,0,0
3581,3581,0,1,125,0,01111111,0,0
3582,3582,0,1,126,0,01111111,0,0
3583,3583,0,1,126,0,01111111,0,0
3584,3584,0,1,126,0,01111111,0,0
3585,3585,0,1,126,0,01111111,0,0
3586,3586,0,1,126,0,01111111,0,0
3587,3587,0,1,126,0,01111111,0,0
3588,3588,0,1,126,0,01111111,0,0
3589,3589,0,1,126,0,01111111,0,0
3590,3590,0,1,126,0,01111111,0,0
3591,3591,0,1,126,0,01111111,0,0
3592,3592,0,1,125,0,01111111,0,0
3593,3593,0,1,126,0,01111111,0,0
3594,3594,0,1,125,0,01111111,0,0
3595,3595,0,1,126,0,01111111,0,0
3596,3596,0,1,126,0,01111111,0,0
3597,3597,0,1,125,0,01111111,0,0
3598,3598,0,1,126,0,01111111,0,0
3599,3599,0,1,126,0,01111111,0,0
3600,3600,0,1,125,0,01111111,0,0
3601,3601,0,1,126,1,01111111,0,1
3602,3602,0,1,125,1,01111111,0,1
3603,3603,0,1,126,1,01111111,0,1
3604,3604,0,1,125,1,01111111,0,1
3605,3605,0,1,125,1,01111111,0,1
3606,3606,0,1,126,1,01111111,0,1
3607,3607,0,1,126,1,01111111,0,1
3608,3608,0,1,126,1,01111111,0,1
3609,3609,0,1,125,1,01111111,0,1
3610,3610,0,1,126,1,01111111,0,1
3611,3611,0,1,126,1,01111111,0,1
3612,3612,0,1,126,1,01111111,0,1
3613,3613,0,1,126,1,01111111,0,1
3614,3614,0,1,126,1,01111111,0,1
3615,3615,0,1,126,1,01111111,0,1
3616,3616,0,1,125,1,01111111,0,1
3617,3617,0,1,126,1,01111111,0,1
3618,3618,0,1,126,1,01111111,0,1
3619,3619,0,1,126,1,01111111,0,1
3620,3620,0,1,126,1,01111111,0,1
3621,3621,0,1,125,1,01111111,0,1
3622,3622,0,1,126,1,01111111,0,1
3623,3623,0,1,126,0,01111111,0,0
3624,3624,0,1,126,0,01111111,0,0
3625,3625,0,1,126,0,01111111,0,0
3626,3626,0,1,125,0,01111111,0,0
3627,3627,0,1,126,0,01111111,0,0
3628,3628,0,1,126,0,01111111,0,0
3629,3629,0,1,126,0,01111111,0,0
3630,3630,0,1,126,0,01111111,0,0
3631,3631,0,1,126,0,01111111,0,0
3632,3632,0,1,126,0,01111111,0,0
3633,3633,0,1,125,0,01111111,0,0
3634,3634,0,1,126,0,01111111,0,0
3635,3635,0,1,126,0,01111111,0,0
3636,3636,0,1,126,0,01111111,0,0
3637,3637,0,1,126,0,01111111,0,0
3638,3638,0,1,126,0,01111111,0,0
3639,3639,0,1,125,0,01111111,0,0
3640,3640,0,1,126,0,01111111,0,0
3641,3641,0,1,125,0,01111111,0,0
3642,3642,0,1,126,0,01111111,0,0
3643,3643,0,1,126,0,01111111,0,0
3644,3644,0,1,126,0,01111111,0,0
3645,3645,0,1,126,0,01111111,0,0
3646,3646,0,1,125,1,01111111,0,1
3647,3647,0,1,126,1,01111111,0,1
3648,3648,0,1,125,1,01111111,0,1
3649,3649,0,1,125,1,01111111,0,1
3650,3650,0,1,126,1,01111111,0,1
3651,3651,0,1,126,1,01111111,0,1
3652,3652,0,1,126,1,01111111,0,1
3653,3653,0,1,125,1,01111111,0,1
3654,3654,0,1,126,1,01111111,0,1
3655,3655,0,1,126,1,01111111,0,1
3656,3656,0,1,125,1,01111111,0,1
3657,3657,0,1,126,1,01111111,0,1
3658,3658,0,1,126,1,01111111,0,1
3659,3659,0,1,126,1,01111111,0,1
3660,3660,0,1,126,1,01111111,0,1
3661,3661,0,1,126,1,01111111,0,1
3662,3662,0,1,125,1,01111111,0,1
3663,3663,0,1,126,1,01111111,0,1
3664,3664,0,1,126,1,01111111,0,1
3665,3665,0,1,126,1,01111111,0,1
3666,3666,0,1,126,1,01111111,0,1
3667,3667,0,1,126,1,01111111,0,1
3668,3668,0,1,126,0,01111111,0,0
3669,3669,0,1,126,0,01111111,0,0
3670,3670,0,1,126,0,01111111,0,0
3671,3671,0,1,125,0,01111111,0,0
3672,3672,0,1,126,0,01111111,0,0
3673,3673,0,1,126,0,01111111,0,0
3674,3674,0,1,126,0,01111111,0,0
3675,3675,0,1,126,0,01111111,0,0
3676,3676,0,1,126,0,01111111,0,0
3677,3677,0,1,126,0,01111111,0,0
3678,3678,0,1,126,0,01111111,0,0
3679,3679,0,1,126,0,01111111,0,0
3680,3680,0,1,125,0,01111111,0,0
3681,3681,0,1,126,0,01111111,0,0
3682,3682,0,1,126,0,01111111,0,0
3683,3683,0,1,126,0,01111111,0,0
3684,3684,0,1,126,0,01111111,0,0
3685,3685,0,1,126,0,01111111,0,0
3686,3686,0,1,126,0,01111111,0,0
3687,3687,0,1,125,0,01111111,0,0
3688,3688,0,1,126,0,01111111,0,0
3689,3689,0,1,126,0,01111111,0,0
3690,3690,0,1,126,0,01111111,0,0
3691,3691,0,1,126,1,01111111,0,1
3692,3692,0,1,125,1,01111111,0,1
3693,3693,0,1,126,1,01111111,0,1
3694,3694,0,1,126,1,01111111,0,1
3695,3695,0,1,125,1,01111111,0,1
3696,3696,0,1,126,1,01111111,0,1
3697,3697,0,1,126,1,01111111,0,1
3698,3698,0,1,126,1,01111111,0,1
3699,3699,0,1,126,1,01111111,0,1
3700,3700,0,1,126,1,01111111,0,1
3701,3701,0,1,126,1,01111111,0,1
3702,3702,0,1,126,1,01111111,0,1
3703,3703,0,1,126,1,01111111,0,1
3704,3704,0,1,126,1,01111111,0,1
3705,3705,0,1,126,1,01111111,0,1
3706,3706,0,1,125,1,01111111,0,1
3707,3707,0,1,125,1,01111111,0,1
3708,3708,0,1,126,1,01111111,0,1
3709,3709,0,1,126,1,01111111,0,1
3710,3710,0,1,125,1,01111111,0,1
3711,3711,0,1,126,1,01111111,0,1
3712,3712,0,1,126,1,01111111,0,1
3713,3713,0,1,126,0,01111111,0,0
3714,3714,0,1,126,0,01111111,0,0
3715,3715,0,1,126,0,01111111,0,0
3716,3716,0,1,126,0,01111111,0,0
3717,3717,0,1,126,0,01111111,0,0
3718,3718,0,1,125,0,01111111,0,0
3719,3719,0,1,126,0,01111111,0,0
3720,3720,0,1,126,0,01111111,0,0
3721,3721,0,1,126,0,01111111,0,0
3722,3722,0,1,126,0,01111111,0,0
3723,3723,0,1,126,0,01111111,0,0
3724,3724,0,1,126,0,01111111,0,0
3725,3725,0,1,126,0,01111111,0,0
3726,3726,0,1,126,0,01111111,0,0
3727,3727,0,1,125,0,01111111,0,0
3728,3728,0,1,126,0,01111111,0,0
3729,3729,0,1,126,0,01111111,0,0
3730,3730,0,1,126,0,01111111,0,0
3731,3731,0,1,126,0,01111111,0,0
3732,3732,0,1,125,0,01111111,0,0
3733,3733,0,1,126,0,01111111,0,0
3734,3734,0,1,126,0,01111111,0,0
3735,3735,0,1,125,0,01111111,0,0
3736,3736,0,1,126,1,01111111,0,1
3737,3737,0,1,126,1,01111111,0,1
3738,3738,0,1,126,1,01111111,0,1
3739,3739,0,1,126,1,01111111,0,1
3740,3740,0,1,125,1,01111111,0,1
3741,3741,0,1,126,1,01111111,0,1
3742,3742,0,1,126,1,01111111,0,1
3743,3743,0,1,126,1,01111111,0,1
3744,3744,0,1,126,1,01111111,0,1
3745,3745,0,1,126,1,01111111,0,1
3746,3746,0,1,126,1,01111111,0,1
3747,3747,0,1,125,1,01111111,0,1
3748,3748,0,1,126,1,01111111,0,1
3749,3749,0,1,126,1,01111111,0,1
3750,3750,0,1,126,1,01111111,0,1
3751,3751,0,1,125,1,01111111,0,1
3752,3752,0,1,126,1,01111111,0,1
3753,3753,0,1,126,1,01111111,0,1
3754,3754,0,1,126,1,01111111,0,1
3755,3755,0,1,126,1,01111111,0,1
3756,3756,0,1,126,1,01111111,0,1
3757,3757,0,1,126,1,01111111,0,1
3758,3758,0,1,125,0,01111111,0,0
3759,3759,0,1,126,0,01111111,0,0
3760,3760,0,1,126,0,01111111,0,0
3761,3761,0,1,126,0,01111111,0,0
3762,3762,0,1,126,0,01111111,0,0
3763,3763,0,1,126,0,01111111,0,0
3764,3764,0,1,126,0,01111111,0,0
3765,3765,0,1,125,0,01111111,0,0
3766,3766,0,1,125,0,01111111,0,0
3767,3767,0,1,117,0,01111111,0,0
3768,3768,0,1,125,0,01111111,0,0
3769,3769,0,1,134,0,01111111,0,0
3770,3770,0,1,117,0,01111111,0,0
3771,3771,0,1,126,0,01111111,0,0
3772,3772,0,1,134,0,01111111,0,0
3773,3773,0,1,117,0,01111111,0,0
3774,3774,0,1,126,0,01111111,0,0
3775,3775,0,1,134,0,01111111,0,0
3776,3776,0,1,117,0,01111111,0,0
3777,3777,0,1,126,0,01111111,0,0
3778,3778,0,1,134,0,01111111,0,0
3779,3779,0,1,117,0,01111111,0,0
3780,3780,0,1,126,0,01111111,0,0
3781,3781,0,1,134,1,01111111,0,1
3782,3782,0,1,117,1,01111111,0,1
3783,3783,0,1,126,1,01111111,0,1
3784,3784,0,1,134,1,01111111,0,1
3785,3785,0,1,117,1,01111111,0,1
3786,3786,0,1,126,1,01111111,0,1
3787,3787,0,1,134,1,01111111,0,1
3788,3788,0,1,123,1,01111111,0,1
3789,3789,0,1,134,1,01111111,0,1
3790,3790,0,1,132,1,01111111,0,1
3791,3791,0,1,118,1,01111111,0,1
3792,3792,0,1,125,1,01111111,0,1
3793,3793,0,1,134,1,01111111,0,1
3794,3794,0,1,117,1,01111111,0,1
3795,3795,0,1,126,1,01111111,0,1
3796,3796,0,1,134,1,01111111,0,1
3797,3797,0,1,117,1,01111111,0,1
3798,3798,0,1,126,1,01111111,0,1
3799,3799,0,1,134,1,01111111,0,1
3800,3800,0,1,117,1,01111111,0,1
3801,3801,0,1,126,1,01111111,0,1
3802,3802,0,1,134,1,01111111,0,1
3803,3803,0,1,117,0,01111111,0,0
3804,3804,0,1,126,0,01111111,0,0
3805,3805,0,1,134,0,01111111,0,0
3806,3806,0,1,117,0,01111111,0,0
3807,3807,0,1,126,0,01111111,0,0
3808,3808,0,1,134,0,01111111,0,0
